# vsim -vopt work.tb -voptargs="+acc=npr" -assertdebug -l run.log -coverage -c -do "coverage save -onexit -assert -directive -cvg -codeAll coverage.ucdb; coverage report -detail;run -all; exit" 
# Start time: 11:28:12 on Aug 08,2025
# ** Note: (vsim-3813) Design is being optimized due to module recompilation...
# //  Questa Sim
# //  Version 10.6c linux Jul 25 2017
# //
# //  Copyright 1991-2017 Mentor Graphics Corporation
# //  All Rights Reserved.
# //
# //  QuestaSim and its associated documentation contain trade
# //  secrets and commercial or financial information that are the property of
# //  Mentor Graphics Corporation and are privileged, confidential,
# //  and exempt from disclosure under the Freedom of Information Act,
# //  5 U.S.C. Section 552. Furthermore, this information
# //  is prohibited from disclosure under the Trade Secrets Act,
# //  18 U.S.C. Section 1905.
# //
# Loading sv_std.std
# Loading mtiUvm.uvm_pkg
# Loading work.testbench_sv_unit(fast)
# Loading work.tb(fast)
# Loading work.top_if(fast)
# Loading work.top(fast)
# Loading mtiUvm.questa_uvm_pkg(fast)
# Loading work.top_if(fast)
# Loading /tools/mentor/questasim_10.6c/questasim/uvm-1.1d/linux/uvm_dpi.so
# coverage save -onexit -assert -directive -cvg -codeAll coverage.ucdb
#  coverage report -detail
# Coverage Report by file with details
# 
# =================================================================================
# === File: adapter.sv
# =================================================================================
# Statement Coverage:
#     Enabled Coverage            Active      Hits    Misses % Covered
#     ----------------            ------      ----    ------ ---------
#     Stmts                           20         0        20       0.0
# 
# ================================Statement Details================================
# 
# Statement Coverage for file adapter.sv --
# 
#     1                                                class top_adapter extends uvm_reg_adapter;
#     2               1                    ***0***       `uvm_object_utils(top_adapter)
#     2               2                    ***0***     
#     2               3                    ***0***     
#     2               4                    ***0***     
#     2               5                    ***0***     
#     2               6                    ***0***     
#     2               7                    ***0***     
#     2               8                    ***0***     
#     2               9                    ***0***     
#     2              10                    ***0***     
#     3                                                  
#     4                                                  function new( string name = "top_adapter");
#     5               1                    ***0***         super.new(name);
#     6                                                  endfunction
#     7                                                  
#     8                                                  function uvm_sequence_item reg2bus (const ref uvm_reg_bus_op rw);
#     9                                                    seq_item apb_item;
#     10              1                    ***0***         apb_item = seq_item::type_id::create("apb_item");
#     11              1                    ***0***         apb_item.pwrite = (rw.kind == UVM_WRITE)?1'b1:1'b0;
#     12              1                    ***0***         apb_item.paddr = rw.addr;
#     13              1                    ***0***         apb_item.pwdata = rw.data;
#     14              1                    ***0***         return apb_item;
#     15                                                 endfunction
#     16                                                 
#     17                                                 function void bus2reg (uvm_sequence_item bus_item,ref uvm_reg_bus_op rw);
#     18                                                   seq_item apb_item;
#     19                                                   assert ($cast(apb_item,bus_item));
#     20              1                    ***0***         rw.kind = (apb_item.pwrite == 1'b1)?UVM_WRITE:UVM_READ;
#     21              1                    ***0***         rw.data = (apb_item.pwrite == 1'b1)?apb_item.pwdata:apb_item.prdata;
#     22              1                    ***0***         rw.addr = apb_item.paddr;
#     23              1                    ***0***         rw.status = UVM_IS_OK;
#     24                                                 endfunction
#     25                                               endclass
#     26                                                 
# 
# Branch Coverage:
#     Enabled Coverage            Active      Hits    Misses % Covered
#     ----------------            ------      ----    ------ ---------
#     Branches                        14         0        14       0.0
# 
# ================================Branch Details================================
# 
# Branch Coverage for file adapter.sv --
# 
# ------------------------------------IF Branch------------------------------------
#     2                                    ***0***     Count coming in to IF
#     2               1                    ***0***       `uvm_object_utils(top_adapter)
#                                          ***0***     All False Count
# Branch totals: 0 hits of 2 branches = 0.0%
# 
# ------------------------------------IF Branch------------------------------------
#     2                                    ***0***     Count coming in to IF
#     2               2                    ***0***       `uvm_object_utils(top_adapter)
#                                          ***0***     All False Count
# Branch totals: 0 hits of 2 branches = 0.0%
# 
# ------------------------------------IF Branch------------------------------------
#     2                                    ***0***     Count coming in to IF
#     2               3                    ***0***       `uvm_object_utils(top_adapter)
#     2               4                    ***0***       `uvm_object_utils(top_adapter)
# Branch totals: 0 hits of 2 branches = 0.0%
# 
# ------------------------------------IF Branch------------------------------------
#     2                                    ***0***     Count coming in to IF
#     2               5                    ***0***       `uvm_object_utils(top_adapter)
#                                          ***0***     All False Count
# Branch totals: 0 hits of 2 branches = 0.0%
# 
# ------------------------------------IF Branch------------------------------------
#     2                                    ***0***     Count coming in to IF
#     2               6                    ***0***       `uvm_object_utils(top_adapter)
#                                          ***0***     All False Count
# Branch totals: 0 hits of 2 branches = 0.0%
# 
# ------------------------------------IF Branch------------------------------------
#     20                                   ***0***     Count coming in to IF
#     20              1                    ***0***         rw.kind = (apb_item.pwrite == 1'b1)?UVM_WRITE:UVM_READ;
#     20              2                    ***0***         rw.kind = (apb_item.pwrite == 1'b1)?UVM_WRITE:UVM_READ;
# Branch totals: 0 hits of 2 branches = 0.0%
# 
# ------------------------------------IF Branch------------------------------------
#     21                                   ***0***     Count coming in to IF
#     21              1                    ***0***         rw.data = (apb_item.pwrite == 1'b1)?apb_item.pwdata:apb_item.prdata;
#     21              2                    ***0***         rw.data = (apb_item.pwrite == 1'b1)?apb_item.pwdata:apb_item.prdata;
# Branch totals: 0 hits of 2 branches = 0.0%
# 
# 
# Condition Coverage:
#     Enabled Coverage            Active   Covered    Misses % Covered
#     ----------------            ------      ----    ------ ---------
#     FEC Condition Terms              0         0         0     100.0
# Expression Coverage:
#     Enabled Coverage            Active   Covered    Misses % Covered
#     ----------------            ------      ----    ------ ---------
#     FEC Expression Terms             0         0         0     100.0
# FSM Coverage:
#     Enabled Coverage            Active      Hits    Misses % Covered
#     ----------------            ------      ----    ------ ---------
#     FSMs                                                       100.0
#         States                       0         0         0     100.0
#         Transitions                  0         0         0     100.0
# Toggle Coverage:
#     Enabled Coverage            Active      Hits    Misses % Covered
#     ----------------            ------      ----    ------ ---------
#     Toggle Bins                      0         0         0     100.0
# 
# ================================Toggle Details================================
# 
# Toggle Coverage for File adapter.sv --
# 
#        Line                                   Node      1H->0L      0L->1H  "Coverage"
# --------------------------------------------------------------------------------------
# 
# Total Node Count     =          0 
# Toggled Node Count   =          0 
# Untoggled Node Count =          0 
# 
# Toggle Coverage      =      100.0% (0 of 0 bins)
# 
# =================================================================================
# === File: agent.sv
# =================================================================================
# Statement Coverage:
#     Enabled Coverage            Active      Hits    Misses % Covered
#     ----------------            ------      ----    ------ ---------
#     Stmts                           10         0        10       0.0
# 
# ================================Statement Details================================
# 
# Statement Coverage for file agent.sv --
# 
#     1                                                class agent extends uvm_agent;
#     2               1                    ***0***       `uvm_component_utils(agent)
#     2               2                    ***0***     
#     2               3                    ***0***     
#     3                                                  driver drv;
#     4                                                  monitor mon;
#     5                                                  sequencer seqr;
#     6                                                  //uvm_sequencer#(seq_item) seqr;
#     7                                                
#     8                                                  function new(string name = "agent", uvm_component parent = null);
#     9               1                    ***0***         super.new(name,parent);
#     10                                                 endfunction
#     11                                               
#     12                                                 function void build_phase(uvm_phase phase);
#     13              1                    ***0***         super.build_phase(phase);
#     14              1                    ***0***         drv = driver::type_id::create("drv",this);
#     15              1                    ***0***         mon = monitor::type_id::create("mon",this);
#     16              1                    ***0***         seqr = sequencer::type_id::create("seqr", this);
#     17                                                 endfunction
#     18                                               
#     19                                                function void connect_phase(uvm_phase phase);
#     20              1                    ***0***         super.connect_phase(phase);
#     21              1                    ***0***         drv.seq_item_port.connect(seqr.seq_item_export);
#     22                                                 endfunction
#     23                                               endclass
# 
# Branch Coverage:
#     Enabled Coverage            Active      Hits    Misses % Covered
#     ----------------            ------      ----    ------ ---------
#     Branches                         0         0         0     100.0
# Condition Coverage:
#     Enabled Coverage            Active   Covered    Misses % Covered
#     ----------------            ------      ----    ------ ---------
#     FEC Condition Terms              0         0         0     100.0
# Expression Coverage:
#     Enabled Coverage            Active   Covered    Misses % Covered
#     ----------------            ------      ----    ------ ---------
#     FEC Expression Terms             0         0         0     100.0
# FSM Coverage:
#     Enabled Coverage            Active      Hits    Misses % Covered
#     ----------------            ------      ----    ------ ---------
#     FSMs                                                       100.0
#         States                       0         0         0     100.0
#         Transitions                  0         0         0     100.0
# Toggle Coverage:
#     Enabled Coverage            Active      Hits    Misses % Covered
#     ----------------            ------      ----    ------ ---------
#     Toggle Bins                      0         0         0     100.0
# 
# ================================Toggle Details================================
# 
# Toggle Coverage for File agent.sv --
# 
#        Line                                   Node      1H->0L      0L->1H  "Coverage"
# --------------------------------------------------------------------------------------
# 
# Total Node Count     =          0 
# Toggled Node Count   =          0 
# Untoggled Node Count =          0 
# 
# Toggle Coverage      =      100.0% (0 of 0 bins)
# 
# =================================================================================
# === File: design.v
# =================================================================================
# Statement Coverage:
#     Enabled Coverage            Active      Hits    Misses % Covered
#     ----------------            ------      ----    ------ ---------
#     Stmts                           17         0        17       0.0
# 
# ================================Statement Details================================
# 
# Statement Coverage for file design.v --
# 
#     1                                                module top 
#     2                                                (  
#     3                                                    input               pclk,
#     4                                                    input               presetn,
#     5                                                    input   [31 : 0]    paddr,
#     6                                                    input   [31 : 0]    pwdata,
#     7                                                    input               psel,
#     8                                                    input               pwrite,
#     9                                                    input               penable,
#     10                                                   output  [31 : 0]    prdata
#     11                                               );
#     12                                                
#     13                                                 reg [3:0]  cntrl = 0; ///   cntrl :  [reg4 reg3 reg2 reg1]
#     14                                                 reg [31:0] reg1  = 0; //    datainput 1
#     15                                                 reg [31:0] reg2  = 0; ///   datainput 2
#     16                                                 reg [31:0] reg3  = 0; ///   datainput 3
#     17                                                 reg [31:0] reg4  = 0; //    datainput 4
#     18                                                   
#     19                                                 reg     [31 : 0]    rdata_tmp = 0;    
#     20                                                   // Set all registers to default values
#     21              1                    ***0***         always @ (posedge pclk) 
#     22                                                     begin
#     23                                                       if( !presetn ) 
#     24                                                       begin
#     25              1                    ***0***                cntrl    <= 4'h0;
#     26              1                    ***0***                reg1     <= 32'h5A5A_5555;
#     27              1                    ***0***                reg2     <= 32'h1234_9876;
#     28              1                    ***0***                reg3     <= 32'hA5A5_0000;
#     29              1                    ***0***                reg4     <= 32'h0000_FFFF;
#     30              1                    ***0***               rdata_tmp <= 32'h00000000;
#     31                                                       end
#     32                                                     ////////////update values of register
#     33                                                       else if( psel && penable && pwrite )
#     34                                                       begin
#     35                                                           case( paddr )
#     36              1                    ***0***                     'h0     : cntrl <= pwdata;
#     37              1                    ***0***                     'h8     : reg2  <= pwdata;
#     38              1                    ***0***                     'hc     : reg3  <= pwdata;
#     39              1                    ***0***                     'h10    : reg4  <= pwdata;
#     40                                                           endcase
#     41                                                       end
#     42                                                       else if (psel && penable && !pwrite )
#     43                                                        begin
#     44                                                          case( paddr )
#     45              1                    ***0***                     'h0     : rdata_tmp <= {28'h0000000,cntrl};
#     46              1                    ***0***                     'h4     : rdata_tmp <= reg1;
#     47              1                    ***0***                     'h8     : rdata_tmp <= reg2;
#     48              1                    ***0***                     'hc     : rdata_tmp <= reg3;
#     49              1                    ***0***                     'h10    : rdata_tmp <= reg4;
#     50              1                    ***0***                     default : rdata_tmp <= 32'h00000000;
#     51                                                           endcase 
#     52                                                        end      
#     53                                                   end   
#     54                                               assign prdata =  rdata_tmp; 
#     55                                               endmodule
# 
# Branch Coverage:
#     Enabled Coverage            Active      Hits    Misses % Covered
#     ----------------            ------      ----    ------ ---------
#     Branches                        15         0        15       0.0
# 
# ================================Branch Details================================
# 
# Branch Coverage for file design.v --
# 
# ------------------------------------IF Branch------------------------------------
#     23                                   ***0***     Count coming in to IF
#     23              1                    ***0***             if( !presetn ) 
#     33              1                    ***0***             else if( psel && penable && pwrite )
#     42              1                    ***0***             else if (psel && penable && !pwrite )
#                                          ***0***     All False Count
# Branch totals: 0 hits of 4 branches = 0.0%
# 
# ------------------------------------CASE Branch------------------------------------
#     35                                   ***0***     Count coming in to CASE
#     36              1                    ***0***                     'h0     : cntrl <= pwdata;
#     37              1                    ***0***                     'h8     : reg2  <= pwdata;
#     38              1                    ***0***                     'hc     : reg3  <= pwdata;
#     39              1                    ***0***                     'h10    : reg4  <= pwdata;
#                                          ***0***     All False Count
# Branch totals: 0 hits of 5 branches = 0.0%
# 
# ------------------------------------CASE Branch------------------------------------
#     44                                   ***0***     Count coming in to CASE
#     45              1                    ***0***                     'h0     : rdata_tmp <= {28'h0000000,cntrl};
#     46              1                    ***0***                     'h4     : rdata_tmp <= reg1;
#     47              1                    ***0***                     'h8     : rdata_tmp <= reg2;
#     48              1                    ***0***                     'hc     : rdata_tmp <= reg3;
#     49              1                    ***0***                     'h10    : rdata_tmp <= reg4;
#     50              1                    ***0***                     default : rdata_tmp <= 32'h00000000;
# Branch totals: 0 hits of 6 branches = 0.0%
# 
# 
# Condition Coverage:
#     Enabled Coverage            Active   Covered    Misses % Covered
#     ----------------            ------      ----    ------ ---------
#     FEC Condition Terms              6         0         6       0.0
# 
# ================================Condition Details================================
# 
# Condition Coverage for file design.v --
# 
# ----------------Focused Condition View-------------------
# Line       33 Item    1  ((psel && penable) && pwrite)
# Condition totals: 0 of 3 input terms covered = 0.0%
# 
#   Input Term   Covered  Reason for no coverage   Hint
#  -----------  --------  -----------------------  --------------
#         psel         N  No hits                  Hit '_0' and '_1'
#      penable         N  No hits                  Hit '_0' and '_1'
#       pwrite         N  No hits                  Hit '_0' and '_1'
# 
#      Rows:       Hits  FEC Target            Non-masking condition(s)      
#  ---------  ---------  --------------------  -------------------------     
#   Row   1:    ***0***  psel_0                -                             
#   Row   2:    ***0***  psel_1                (pwrite && penable)           
#   Row   3:    ***0***  penable_0             psel                          
#   Row   4:    ***0***  penable_1             (pwrite && psel)              
#   Row   5:    ***0***  pwrite_0              (psel && penable)             
#   Row   6:    ***0***  pwrite_1              (psel && penable)             
# 
# ----------------Focused Condition View-------------------
# Line       42 Item    1  ((psel && penable) && ~pwrite)
# Condition totals: 0 of 3 input terms covered = 0.0%
# 
#   Input Term   Covered  Reason for no coverage   Hint
#  -----------  --------  -----------------------  --------------
#         psel         N  No hits                  Hit '_0' and '_1'
#      penable         N  No hits                  Hit '_0' and '_1'
#       pwrite         N  No hits                  Hit '_0' and '_1'
# 
#      Rows:       Hits  FEC Target            Non-masking condition(s)      
#  ---------  ---------  --------------------  -------------------------     
#   Row   1:    ***0***  psel_0                -                             
#   Row   2:    ***0***  psel_1                (~pwrite && penable)          
#   Row   3:    ***0***  penable_0             psel                          
#   Row   4:    ***0***  penable_1             (~pwrite && psel)             
#   Row   5:    ***0***  pwrite_0              (psel && penable)             
#   Row   6:    ***0***  pwrite_1              (psel && penable)             
# 
# 
# Expression Coverage:
#     Enabled Coverage            Active   Covered    Misses % Covered
#     ----------------            ------      ----    ------ ---------
#     FEC Expression Terms             0         0         0     100.0
# FSM Coverage:
#     Enabled Coverage            Active      Hits    Misses % Covered
#     ----------------            ------      ----    ------ ---------
#     FSMs                                                       100.0
#         States                       0         0         0     100.0
#         Transitions                  0         0         0     100.0
# Toggle Coverage:
#     Enabled Coverage            Active      Hits    Misses % Covered
#     ----------------            ------      ----    ------ ---------
#     Toggle Bins                    530         0       530       0.0
# 
# ================================Toggle Details================================
# 
# Toggle Coverage for File design.v --
# 
#        Line                                   Node      1H->0L      0L->1H  "Coverage"
# --------------------------------------------------------------------------------------
#           3                                   pclk           0           0        0.00 
#           4                                presetn           0           0        0.00 
#           5                               paddr[9]           0           0        0.00 
#           5                               paddr[8]           0           0        0.00 
#           5                               paddr[7]           0           0        0.00 
#           5                               paddr[6]           0           0        0.00 
#           5                               paddr[5]           0           0        0.00 
#           5                               paddr[4]           0           0        0.00 
#           5                               paddr[3]           0           0        0.00 
#           5                              paddr[31]           0           0        0.00 
#           5                              paddr[30]           0           0        0.00 
#           5                               paddr[2]           0           0        0.00 
#           5                              paddr[29]           0           0        0.00 
#           5                              paddr[28]           0           0        0.00 
#           5                              paddr[27]           0           0        0.00 
#           5                              paddr[26]           0           0        0.00 
#           5                              paddr[25]           0           0        0.00 
#           5                              paddr[24]           0           0        0.00 
#           5                              paddr[23]           0           0        0.00 
#           5                              paddr[22]           0           0        0.00 
#           5                              paddr[21]           0           0        0.00 
#           5                              paddr[20]           0           0        0.00 
#           5                               paddr[1]           0           0        0.00 
#           5                              paddr[19]           0           0        0.00 
#           5                              paddr[18]           0           0        0.00 
#           5                              paddr[17]           0           0        0.00 
#           5                              paddr[16]           0           0        0.00 
#           5                              paddr[15]           0           0        0.00 
#           5                              paddr[14]           0           0        0.00 
#           5                              paddr[13]           0           0        0.00 
#           5                              paddr[12]           0           0        0.00 
#           5                              paddr[11]           0           0        0.00 
#           5                              paddr[10]           0           0        0.00 
#           5                               paddr[0]           0           0        0.00 
#           6                              pwdata[9]           0           0        0.00 
#           6                              pwdata[8]           0           0        0.00 
#           6                              pwdata[7]           0           0        0.00 
#           6                              pwdata[6]           0           0        0.00 
#           6                              pwdata[5]           0           0        0.00 
#           6                              pwdata[4]           0           0        0.00 
#           6                              pwdata[3]           0           0        0.00 
#           6                             pwdata[31]           0           0        0.00 
#           6                             pwdata[30]           0           0        0.00 
#           6                              pwdata[2]           0           0        0.00 
#           6                             pwdata[29]           0           0        0.00 
#           6                             pwdata[28]           0           0        0.00 
#           6                             pwdata[27]           0           0        0.00 
#           6                             pwdata[26]           0           0        0.00 
#           6                             pwdata[25]           0           0        0.00 
#           6                             pwdata[24]           0           0        0.00 
#           6                             pwdata[23]           0           0        0.00 
#           6                             pwdata[22]           0           0        0.00 
#           6                             pwdata[21]           0           0        0.00 
#           6                             pwdata[20]           0           0        0.00 
#           6                              pwdata[1]           0           0        0.00 
#           6                             pwdata[19]           0           0        0.00 
#           6                             pwdata[18]           0           0        0.00 
#           6                             pwdata[17]           0           0        0.00 
#           6                             pwdata[16]           0           0        0.00 
#           6                             pwdata[15]           0           0        0.00 
#           6                             pwdata[14]           0           0        0.00 
#           6                             pwdata[13]           0           0        0.00 
#           6                             pwdata[12]           0           0        0.00 
#           6                             pwdata[11]           0           0        0.00 
#           6                             pwdata[10]           0           0        0.00 
#           6                              pwdata[0]           0           0        0.00 
#           7                                   psel           0           0        0.00 
#           8                                 pwrite           0           0        0.00 
#           9                                penable           0           0        0.00 
#          10                              prdata[9]           0           0        0.00 
#          10                              prdata[8]           0           0        0.00 
#          10                              prdata[7]           0           0        0.00 
#          10                              prdata[6]           0           0        0.00 
#          10                              prdata[5]           0           0        0.00 
#          10                              prdata[4]           0           0        0.00 
#          10                              prdata[3]           0           0        0.00 
#          10                             prdata[31]           0           0        0.00 
#          10                             prdata[30]           0           0        0.00 
#          10                              prdata[2]           0           0        0.00 
#          10                             prdata[29]           0           0        0.00 
#          10                             prdata[28]           0           0        0.00 
#          10                             prdata[27]           0           0        0.00 
#          10                             prdata[26]           0           0        0.00 
#          10                             prdata[25]           0           0        0.00 
#          10                             prdata[24]           0           0        0.00 
#          10                             prdata[23]           0           0        0.00 
#          10                             prdata[22]           0           0        0.00 
#          10                             prdata[21]           0           0        0.00 
#          10                             prdata[20]           0           0        0.00 
#          10                              prdata[1]           0           0        0.00 
#          10                             prdata[19]           0           0        0.00 
#          10                             prdata[18]           0           0        0.00 
#          10                             prdata[17]           0           0        0.00 
#          10                             prdata[16]           0           0        0.00 
#          10                             prdata[15]           0           0        0.00 
#          10                             prdata[14]           0           0        0.00 
#          10                             prdata[13]           0           0        0.00 
#          10                             prdata[12]           0           0        0.00 
#          10                             prdata[11]           0           0        0.00 
#          10                             prdata[10]           0           0        0.00 
#          10                              prdata[0]           0           0        0.00 
#          13                               cntrl[3]           0           0        0.00 
#          13                               cntrl[2]           0           0        0.00 
#          13                               cntrl[1]           0           0        0.00 
#          13                               cntrl[0]           0           0        0.00 
#          14                                reg1[9]           0           0        0.00 
#          14                                reg1[8]           0           0        0.00 
#          14                                reg1[7]           0           0        0.00 
#          14                                reg1[6]           0           0        0.00 
#          14                                reg1[5]           0           0        0.00 
#          14                                reg1[4]           0           0        0.00 
#          14                                reg1[3]           0           0        0.00 
#          14                               reg1[31]           0           0        0.00 
#          14                               reg1[30]           0           0        0.00 
#          14                                reg1[2]           0           0        0.00 
#          14                               reg1[29]           0           0        0.00 
#          14                               reg1[28]           0           0        0.00 
#          14                               reg1[27]           0           0        0.00 
#          14                               reg1[26]           0           0        0.00 
#          14                               reg1[25]           0           0        0.00 
#          14                               reg1[24]           0           0        0.00 
#          14                               reg1[23]           0           0        0.00 
#          14                               reg1[22]           0           0        0.00 
#          14                               reg1[21]           0           0        0.00 
#          14                               reg1[20]           0           0        0.00 
#          14                                reg1[1]           0           0        0.00 
#          14                               reg1[19]           0           0        0.00 
#          14                               reg1[18]           0           0        0.00 
#          14                               reg1[17]           0           0        0.00 
#          14                               reg1[16]           0           0        0.00 
#          14                               reg1[15]           0           0        0.00 
#          14                               reg1[14]           0           0        0.00 
#          14                               reg1[13]           0           0        0.00 
#          14                               reg1[12]           0           0        0.00 
#          14                               reg1[11]           0           0        0.00 
#          14                               reg1[10]           0           0        0.00 
#          14                                reg1[0]           0           0        0.00 
#          15                                reg2[9]           0           0        0.00 
#          15                                reg2[8]           0           0        0.00 
#          15                                reg2[7]           0           0        0.00 
#          15                                reg2[6]           0           0        0.00 
#          15                                reg2[5]           0           0        0.00 
#          15                                reg2[4]           0           0        0.00 
#          15                                reg2[3]           0           0        0.00 
#          15                               reg2[31]           0           0        0.00 
#          15                               reg2[30]           0           0        0.00 
#          15                                reg2[2]           0           0        0.00 
#          15                               reg2[29]           0           0        0.00 
#          15                               reg2[28]           0           0        0.00 
#          15                               reg2[27]           0           0        0.00 
#          15                               reg2[26]           0           0        0.00 
#          15                               reg2[25]           0           0        0.00 
#          15                               reg2[24]           0           0        0.00 
#          15                               reg2[23]           0           0        0.00 
#          15                               reg2[22]           0           0        0.00 
#          15                               reg2[21]           0           0        0.00 
#          15                               reg2[20]           0           0        0.00 
#          15                                reg2[1]           0           0        0.00 
#          15                               reg2[19]           0           0        0.00 
#          15                               reg2[18]           0           0        0.00 
#          15                               reg2[17]           0           0        0.00 
#          15                               reg2[16]           0           0        0.00 
#          15                               reg2[15]           0           0        0.00 
#          15                               reg2[14]           0           0        0.00 
#          15                               reg2[13]           0           0        0.00 
#          15                               reg2[12]           0           0        0.00 
#          15                               reg2[11]           0           0        0.00 
#          15                               reg2[10]           0           0        0.00 
#          15                                reg2[0]           0           0        0.00 
#          16                                reg3[9]           0           0        0.00 
#          16                                reg3[8]           0           0        0.00 
#          16                                reg3[7]           0           0        0.00 
#          16                                reg3[6]           0           0        0.00 
#          16                                reg3[5]           0           0        0.00 
#          16                                reg3[4]           0           0        0.00 
#          16                                reg3[3]           0           0        0.00 
#          16                               reg3[31]           0           0        0.00 
#          16                               reg3[30]           0           0        0.00 
#          16                                reg3[2]           0           0        0.00 
#          16                               reg3[29]           0           0        0.00 
#          16                               reg3[28]           0           0        0.00 
#          16                               reg3[27]           0           0        0.00 
#          16                               reg3[26]           0           0        0.00 
#          16                               reg3[25]           0           0        0.00 
#          16                               reg3[24]           0           0        0.00 
#          16                               reg3[23]           0           0        0.00 
#          16                               reg3[22]           0           0        0.00 
#          16                               reg3[21]           0           0        0.00 
#          16                               reg3[20]           0           0        0.00 
#          16                                reg3[1]           0           0        0.00 
#          16                               reg3[19]           0           0        0.00 
#          16                               reg3[18]           0           0        0.00 
#          16                               reg3[17]           0           0        0.00 
#          16                               reg3[16]           0           0        0.00 
#          16                               reg3[15]           0           0        0.00 
#          16                               reg3[14]           0           0        0.00 
#          16                               reg3[13]           0           0        0.00 
#          16                               reg3[12]           0           0        0.00 
#          16                               reg3[11]           0           0        0.00 
#          16                               reg3[10]           0           0        0.00 
#          16                                reg3[0]           0           0        0.00 
#          17                                reg4[9]           0           0        0.00 
#          17                                reg4[8]           0           0        0.00 
#          17                                reg4[7]           0           0        0.00 
#          17                                reg4[6]           0           0        0.00 
#          17                                reg4[5]           0           0        0.00 
#          17                                reg4[4]           0           0        0.00 
#          17                                reg4[3]           0           0        0.00 
#          17                               reg4[31]           0           0        0.00 
#          17                               reg4[30]           0           0        0.00 
#          17                                reg4[2]           0           0        0.00 
#          17                               reg4[29]           0           0        0.00 
#          17                               reg4[28]           0           0        0.00 
#          17                               reg4[27]           0           0        0.00 
#          17                               reg4[26]           0           0        0.00 
#          17                               reg4[25]           0           0        0.00 
#          17                               reg4[24]           0           0        0.00 
#          17                               reg4[23]           0           0        0.00 
#          17                               reg4[22]           0           0        0.00 
#          17                               reg4[21]           0           0        0.00 
#          17                               reg4[20]           0           0        0.00 
#          17                                reg4[1]           0           0        0.00 
#          17                               reg4[19]           0           0        0.00 
#          17                               reg4[18]           0           0        0.00 
#          17                               reg4[17]           0           0        0.00 
#          17                               reg4[16]           0           0        0.00 
#          17                               reg4[15]           0           0        0.00 
#          17                               reg4[14]           0           0        0.00 
#          17                               reg4[13]           0           0        0.00 
#          17                               reg4[12]           0           0        0.00 
#          17                               reg4[11]           0           0        0.00 
#          17                               reg4[10]           0           0        0.00 
#          17                                reg4[0]           0           0        0.00 
#          19                           rdata_tmp[9]           0           0        0.00 
#          19                           rdata_tmp[8]           0           0        0.00 
#          19                           rdata_tmp[7]           0           0        0.00 
#          19                           rdata_tmp[6]           0           0        0.00 
#          19                           rdata_tmp[5]           0           0        0.00 
#          19                           rdata_tmp[4]           0           0        0.00 
#          19                           rdata_tmp[3]           0           0        0.00 
#          19                          rdata_tmp[31]           0           0        0.00 
#          19                          rdata_tmp[30]           0           0        0.00 
#          19                           rdata_tmp[2]           0           0        0.00 
#          19                          rdata_tmp[29]           0           0        0.00 
#          19                          rdata_tmp[28]           0           0        0.00 
#          19                          rdata_tmp[27]           0           0        0.00 
#          19                          rdata_tmp[26]           0           0        0.00 
#          19                          rdata_tmp[25]           0           0        0.00 
#          19                          rdata_tmp[24]           0           0        0.00 
#          19                          rdata_tmp[23]           0           0        0.00 
#          19                          rdata_tmp[22]           0           0        0.00 
#          19                          rdata_tmp[21]           0           0        0.00 
#          19                          rdata_tmp[20]           0           0        0.00 
#          19                           rdata_tmp[1]           0           0        0.00 
#          19                          rdata_tmp[19]           0           0        0.00 
#          19                          rdata_tmp[18]           0           0        0.00 
#          19                          rdata_tmp[17]           0           0        0.00 
#          19                          rdata_tmp[16]           0           0        0.00 
#          19                          rdata_tmp[15]           0           0        0.00 
#          19                          rdata_tmp[14]           0           0        0.00 
#          19                          rdata_tmp[13]           0           0        0.00 
#          19                          rdata_tmp[12]           0           0        0.00 
#          19                          rdata_tmp[11]           0           0        0.00 
#          19                          rdata_tmp[10]           0           0        0.00 
#          19                           rdata_tmp[0]           0           0        0.00 
# 
# Total Node Count     =        265 
# Toggled Node Count   =          0 
# Untoggled Node Count =        265 
# 
# Toggle Coverage      =        0.0% (0 of 530 bins)
# 
# =================================================================================
# === File: driver.sv
# =================================================================================
# Statement Coverage:
#     Enabled Coverage            Active      Hits    Misses % Covered
#     ----------------            ------      ----    ------ ---------
#     Stmts                           42         0        42       0.0
# 
# ================================Statement Details================================
# 
# Statement Coverage for file driver.sv --
# 
#     1                                                class driver extends uvm_driver#(seq_item);
#     2               1                    ***0***      `uvm_component_utils(driver)
#     2               2                    ***0***     
#     2               3                    ***0***     
#     3                                                  seq_item tr;
#     4                                                  virtual top_if.mp_drv vif;
#     5                                                 
#     6                                                  function new(string name = "driver", uvm_component parent = null);
#     7               1                    ***0***         super.new(name, parent);
#     8                                                  endfunction
#     9                                                 
#     10                                                 function void build_phase(uvm_phase phase);
#     11              1                    ***0***       super.build_phase(phase);
#     12                                               //    tr = seq_item::type_id::create("tr",this);
#     13                                                   if(!uvm_config_db#(virtual top_if.mp_drv)::get(this,"","vif",vif))
#     14              1                    ***0***           `uvm_error("drv","Unable to access Interface");
#     15                                                 endfunction
#     16                                                 
#     17                                                 ///////////////main task of driver
#     18                                                  task run_phase(uvm_phase phase);
#     19              1                    ***0***         super.run_phase(phase);
#     20                                                // tr = seq_item::type_id::create("tr");
#     21              1                    ***0***         vif.cb_drv.psel    <= 1'b0;
#     22              1                    ***0***         vif.cb_drv.penable <= 1'b0;
#     23              1                    ***0***         vif.cb_drv.pwrite  <= 1'b0;
#     24              1                    ***0***         vif.cb_drv.paddr   <= 32'h0;
#     25              1                    ***0***         vif.cb_drv.pwdata  <= 32'h0;
#     26                                               
#     27              1                    ***0***       forever begin
#     28              1                    ***0***       seq_item_port.get_next_item(tr);
#     29              1                    ***0***       drive();
#     30              1                    ***0***       seq_item_port.item_done();
#     31              1                    ***0***       $display("-----------DRIVER----------"); 
#     32                                                 end
#     33                                                 endtask
#     34                                                 
#     35                                                 
#     36                                                 //////////////drive DUT
#     37                                                 task drive();
#     38                                                // if(vif.cb_drv.rst == 1'b1)begin
#     39                                                if(tr.pwrite == 1'b1)
#     40                                                 begin 
#     41              1                    ***0***       @(vif.cb_drv);
#     42              1                    ***0***       vif.rst <= 1'b1;
#     43              1                    ***0***          vif.cb_drv.paddr <= tr.paddr;
#     44              1                    ***0***          vif.cb_drv.pwrite <= 1'b1;
#     45              1                    ***0***          vif.cb_drv.pwdata <= tr.pwdata;
#     46              1                    ***0***          vif.cb_drv.psel <= 1'b1;
#     47              1                    ***0***          repeat(2)@(vif.cb_drv);
#     47              2                    ***0***     
#     48              1                    ***0***          vif.cb_drv.penable <= 1'b1; 
#     49              1                    ***0***          `uvm_info("DRV", $sformatf("Data Write -> Wdata : %0h",vif.cb_drv.pwdata),UVM_NONE);
#     50              1                    ***0***          @( vif.cb_drv);
#     51              1                    ***0***          vif.cb_drv.psel <= 1'b0;
#     52              1                    ***0***          vif.cb_drv.penable <=1'b0;
#     53                                                  end
#     54                                                else
#     55                                                 begin
#     56              1                    ***0***          @(vif.cb_drv);
#     57              1                    ***0***          vif.cb_drv.pwrite <= 1'b0;
#     58              1                    ***0***          vif.cb_drv.paddr <= tr.paddr;
#     59              1                    ***0***          vif.cb_drv.psel <= 1'b1;
#     60              1                    ***0***          repeat(2)@(vif.cb_drv);
#     60              2                    ***0***     
#     61              1                    ***0***          vif.cb_drv.penable <= 1'b1; 
#     62              1                    ***0***          `uvm_info("DRV", $sformatf("Data READ -> read data : %0h",vif.cb_drv.prdata),UVM_NONE);
#     63              1                    ***0***          @(vif.cb_drv);
#     64              1                    ***0***          vif.cb_drv.psel <= 1'b0;
#     65              1                    ***0***          vif.cb_drv.penable <=1'b0;
#     66              1                    ***0***          tr.prdata = vif.cb_drv.prdata;
#     67                                                 end
#     68                                                 endtask
#     69                                               endclass
# 
# Branch Coverage:
#     Enabled Coverage            Active      Hits    Misses % Covered
#     ----------------            ------      ----    ------ ---------
#     Branches                        10         0        10       0.0
# 
# ================================Branch Details================================
# 
# Branch Coverage for file driver.sv --
# 
# ------------------------------------IF Branch------------------------------------
#     13                                   ***0***     Count coming in to IF
#     13              1                    ***0***         if(!uvm_config_db#(virtual top_if.mp_drv)::get(this,"","vif",vif))
#                                          ***0***     All False Count
# Branch totals: 0 hits of 2 branches = 0.0%
# 
# ------------------------------------IF Branch------------------------------------
#     14                                   ***0***     Count coming in to IF
#     14              1                    ***0***           `uvm_error("drv","Unable to access Interface");
#                                          ***0***     All False Count
# Branch totals: 0 hits of 2 branches = 0.0%
# 
# ------------------------------------IF Branch------------------------------------
#     39                                   ***0***     Count coming in to IF
#     39              1                    ***0***      if(tr.pwrite == 1'b1)
#     54              1                    ***0***      else
# Branch totals: 0 hits of 2 branches = 0.0%
# 
# ------------------------------------IF Branch------------------------------------
#     49                                   ***0***     Count coming in to IF
#     49              1                    ***0***          `uvm_info("DRV", $sformatf("Data Write -> Wdata : %0h",vif.cb_drv.pwdata),UVM_NONE);
#                                          ***0***     All False Count
# Branch totals: 0 hits of 2 branches = 0.0%
# 
# ------------------------------------IF Branch------------------------------------
#     62                                   ***0***     Count coming in to IF
#     62              1                    ***0***          `uvm_info("DRV", $sformatf("Data READ -> read data : %0h",vif.cb_drv.prdata),UVM_NONE);
#                                          ***0***     All False Count
# Branch totals: 0 hits of 2 branches = 0.0%
# 
# 
# Condition Coverage:
#     Enabled Coverage            Active   Covered    Misses % Covered
#     ----------------            ------      ----    ------ ---------
#     FEC Condition Terms              0         0         0     100.0
# Expression Coverage:
#     Enabled Coverage            Active   Covered    Misses % Covered
#     ----------------            ------      ----    ------ ---------
#     FEC Expression Terms             0         0         0     100.0
# FSM Coverage:
#     Enabled Coverage            Active      Hits    Misses % Covered
#     ----------------            ------      ----    ------ ---------
#     FSMs                                                       100.0
#         States                       0         0         0     100.0
#         Transitions                  0         0         0     100.0
# Toggle Coverage:
#     Enabled Coverage            Active      Hits    Misses % Covered
#     ----------------            ------      ----    ------ ---------
#     Toggle Bins                      0         0         0     100.0
# 
# ================================Toggle Details================================
# 
# Toggle Coverage for File driver.sv --
# 
#        Line                                   Node      1H->0L      0L->1H  "Coverage"
# --------------------------------------------------------------------------------------
# 
# Total Node Count     =          0 
# Toggled Node Count   =          0 
# Untoggled Node Count =          0 
# 
# Toggle Coverage      =      100.0% (0 of 0 bins)
# 
# =================================================================================
# === File: environment.sv
# =================================================================================
# Statement Coverage:
#     Enabled Coverage            Active      Hits    Misses % Covered
#     ----------------            ------      ----    ------ ---------
#     Stmts                           17         0        17       0.0
# 
# ================================Statement Details================================
# 
# Statement Coverage for file environment.sv --
# 
#     1                                                class environment extends uvm_env;
#     2                                                  agent agent_inst;
#     3                                                  reg_block regmodel; 
#     4                                                  top_adapter adapter_inst;
#     5                                                  scoreboard scb;
#     6               1                    ***0***      `uvm_component_utils(environment)
#     6               2                    ***0***     
#     6               3                    ***0***     
#     7                                                
#     8                                                  function new(string name = "environment", uvm_component parent);
#     9               1                    ***0***       super.new(name, parent);
#     10                                                 endfunction : new
#     11                                               
#     12                                                 // build_phase - create the components
#     13                                                 function void build_phase(uvm_phase phase);
#     14              1                    ***0***       super.build_phase(phase);
#     15              1                    ***0***         agent_inst = agent::type_id::create("agent_inst", this);
#     16              1                    ***0***         regmodel = reg_block::type_id::create("regmodel", this);
#     17              1                    ***0***         adapter_inst = top_adapter::type_id::create("adapter_inst",, get_full_name());
#     18              1                    ***0***         scb = scoreboard::type_id::create("scb", this);
#     19              1                    ***0***         regmodel.configure(null,"");
#     20              1                    ***0***         regmodel.build();
#     21              1                    ***0***         regmodel.lock_model();
#     22                                                 endfunction
#     23                                               
#     24                                               
#     25                                                 function void connect_phase(uvm_phase phase);
#     26              1                    ***0***       super.connect_phase(phase);
#     27              1                    ***0***         agent_inst.mon.mon_ap.connect(scb.received_value); 
#     28              1                    ***0***       regmodel.default_map.set_sequencer( .sequencer(agent_inst.seqr), .adapter(adapter_inst) );
#     29              1                    ***0***       regmodel.default_map.set_base_addr(0);
#     30              1                    ***0***      regmodel.default_map.set_auto_predict(1);    
#     31                                                 endfunction
#     32                                               endclass
# 
# Branch Coverage:
#     Enabled Coverage            Active      Hits    Misses % Covered
#     ----------------            ------      ----    ------ ---------
#     Branches                         0         0         0     100.0
# Condition Coverage:
#     Enabled Coverage            Active   Covered    Misses % Covered
#     ----------------            ------      ----    ------ ---------
#     FEC Condition Terms              0         0         0     100.0
# Expression Coverage:
#     Enabled Coverage            Active   Covered    Misses % Covered
#     ----------------            ------      ----    ------ ---------
#     FEC Expression Terms             0         0         0     100.0
# FSM Coverage:
#     Enabled Coverage            Active      Hits    Misses % Covered
#     ----------------            ------      ----    ------ ---------
#     FSMs                                                       100.0
#         States                       0         0         0     100.0
#         Transitions                  0         0         0     100.0
# Toggle Coverage:
#     Enabled Coverage            Active      Hits    Misses % Covered
#     ----------------            ------      ----    ------ ---------
#     Toggle Bins                      0         0         0     100.0
# 
# ================================Toggle Details================================
# 
# Toggle Coverage for File environment.sv --
# 
#        Line                                   Node      1H->0L      0L->1H  "Coverage"
# --------------------------------------------------------------------------------------
# 
# Total Node Count     =          0 
# Toggled Node Count   =          0 
# Untoggled Node Count =          0 
# 
# Toggle Coverage      =      100.0% (0 of 0 bins)
# 
# =================================================================================
# === File: interface.sv
# =================================================================================
# Statement Coverage:
#     Enabled Coverage            Active      Hits    Misses % Covered
#     ----------------            ------      ----    ------ ---------
#     Stmts                            2         0         2       0.0
# 
# ================================Statement Details================================
# 
# Statement Coverage for file interface.sv --
# 
#     1                                                interface top_if(input bit clk,input bit rst);
#     2                                                  
#     3                                                  logic pwrite;
#     4                                                  logic psel;
#     5                                                  logic penable;
#     6                                                  logic [31:0]paddr;
#     7                                                  logic [31:0]pwdata;
#     8                                                  logic [31:0]prdata;
#     9                                                
#     10              1                    ***0***      clocking cb_drv @(posedge clk);
#     11                                                   default input #0 output #0;
#     12                                                   input rst;
#     13                                                   inout psel;
#     14                                                   inout penable;
#     15                                                   inout pwrite;
#     16                                                   inout paddr;
#     17                                                   inout pwdata;
#     18                                                   input prdata;
#     19                                                 endclocking
#     20                                               
#     21              1                    ***0***       clocking cb_mon @(posedge clk);
#     22                                                   default input #0 output #0;
#     23                                                   input psel;
#     24                                                   input penable;
#     25                                                   input pwrite;
#     26                                                   input paddr;
#     27                                                   input pwdata;
#     28                                                   input prdata;
#     29                                                 endclocking
#     30                                               
#     31                                                 modport mp_drv(clocking cb_drv, input clk, rst, prdata);
#     32                                                 modport mp_mon(clocking cb_mon, input clk, rst);
#     33                                                  
#     34                                               endinterface
# 
# Branch Coverage:
#     Enabled Coverage            Active      Hits    Misses % Covered
#     ----------------            ------      ----    ------ ---------
#     Branches                         0         0         0     100.0
# Condition Coverage:
#     Enabled Coverage            Active   Covered    Misses % Covered
#     ----------------            ------      ----    ------ ---------
#     FEC Condition Terms              0         0         0     100.0
# Expression Coverage:
#     Enabled Coverage            Active   Covered    Misses % Covered
#     ----------------            ------      ----    ------ ---------
#     FEC Expression Terms             0         0         0     100.0
# FSM Coverage:
#     Enabled Coverage            Active      Hits    Misses % Covered
#     ----------------            ------      ----    ------ ---------
#     FSMs                                                       100.0
#         States                       0         0         0     100.0
#         Transitions                  0         0         0     100.0
# Toggle Coverage:
#     Enabled Coverage            Active      Hits    Misses % Covered
#     ----------------            ------      ----    ------ ---------
#     Toggle Bins                    202         0       202       0.0
# 
# ================================Toggle Details================================
# 
# Toggle Coverage for File interface.sv --
# 
#        Line                                   Node      1H->0L      0L->1H  "Coverage"
# --------------------------------------------------------------------------------------
#           1                                    rst           0           0        0.00 
#           1                                    clk           0           0        0.00 
#           3                                 pwrite           0           0        0.00 
#           4                                   psel           0           0        0.00 
#           5                                penable           0           0        0.00 
#           6                               paddr[9]           0           0        0.00 
#           6                               paddr[8]           0           0        0.00 
#           6                               paddr[7]           0           0        0.00 
#           6                               paddr[6]           0           0        0.00 
#           6                               paddr[5]           0           0        0.00 
#           6                               paddr[4]           0           0        0.00 
#           6                               paddr[3]           0           0        0.00 
#           6                              paddr[31]           0           0        0.00 
#           6                              paddr[30]           0           0        0.00 
#           6                               paddr[2]           0           0        0.00 
#           6                              paddr[29]           0           0        0.00 
#           6                              paddr[28]           0           0        0.00 
#           6                              paddr[27]           0           0        0.00 
#           6                              paddr[26]           0           0        0.00 
#           6                              paddr[25]           0           0        0.00 
#           6                              paddr[24]           0           0        0.00 
#           6                              paddr[23]           0           0        0.00 
#           6                              paddr[22]           0           0        0.00 
#           6                              paddr[21]           0           0        0.00 
#           6                              paddr[20]           0           0        0.00 
#           6                               paddr[1]           0           0        0.00 
#           6                              paddr[19]           0           0        0.00 
#           6                              paddr[18]           0           0        0.00 
#           6                              paddr[17]           0           0        0.00 
#           6                              paddr[16]           0           0        0.00 
#           6                              paddr[15]           0           0        0.00 
#           6                              paddr[14]           0           0        0.00 
#           6                              paddr[13]           0           0        0.00 
#           6                              paddr[12]           0           0        0.00 
#           6                              paddr[11]           0           0        0.00 
#           6                              paddr[10]           0           0        0.00 
#           6                               paddr[0]           0           0        0.00 
#           7                              pwdata[9]           0           0        0.00 
#           7                              pwdata[8]           0           0        0.00 
#           7                              pwdata[7]           0           0        0.00 
#           7                              pwdata[6]           0           0        0.00 
#           7                              pwdata[5]           0           0        0.00 
#           7                              pwdata[4]           0           0        0.00 
#           7                              pwdata[3]           0           0        0.00 
#           7                             pwdata[31]           0           0        0.00 
#           7                             pwdata[30]           0           0        0.00 
#           7                              pwdata[2]           0           0        0.00 
#           7                             pwdata[29]           0           0        0.00 
#           7                             pwdata[28]           0           0        0.00 
#           7                             pwdata[27]           0           0        0.00 
#           7                             pwdata[26]           0           0        0.00 
#           7                             pwdata[25]           0           0        0.00 
#           7                             pwdata[24]           0           0        0.00 
#           7                             pwdata[23]           0           0        0.00 
#           7                             pwdata[22]           0           0        0.00 
#           7                             pwdata[21]           0           0        0.00 
#           7                             pwdata[20]           0           0        0.00 
#           7                              pwdata[1]           0           0        0.00 
#           7                             pwdata[19]           0           0        0.00 
#           7                             pwdata[18]           0           0        0.00 
#           7                             pwdata[17]           0           0        0.00 
#           7                             pwdata[16]           0           0        0.00 
#           7                             pwdata[15]           0           0        0.00 
#           7                             pwdata[14]           0           0        0.00 
#           7                             pwdata[13]           0           0        0.00 
#           7                             pwdata[12]           0           0        0.00 
#           7                             pwdata[11]           0           0        0.00 
#           7                             pwdata[10]           0           0        0.00 
#           7                              pwdata[0]           0           0        0.00 
#           8                              prdata[9]           0           0        0.00 
#           8                              prdata[8]           0           0        0.00 
#           8                              prdata[7]           0           0        0.00 
#           8                              prdata[6]           0           0        0.00 
#           8                              prdata[5]           0           0        0.00 
#           8                              prdata[4]           0           0        0.00 
#           8                              prdata[3]           0           0        0.00 
#           8                             prdata[31]           0           0        0.00 
#           8                             prdata[30]           0           0        0.00 
#           8                              prdata[2]           0           0        0.00 
#           8                             prdata[29]           0           0        0.00 
#           8                             prdata[28]           0           0        0.00 
#           8                             prdata[27]           0           0        0.00 
#           8                             prdata[26]           0           0        0.00 
#           8                             prdata[25]           0           0        0.00 
#           8                             prdata[24]           0           0        0.00 
#           8                             prdata[23]           0           0        0.00 
#           8                             prdata[22]           0           0        0.00 
#           8                             prdata[21]           0           0        0.00 
#           8                             prdata[20]           0           0        0.00 
#           8                              prdata[1]           0           0        0.00 
#           8                             prdata[19]           0           0        0.00 
#           8                             prdata[18]           0           0        0.00 
#           8                             prdata[17]           0           0        0.00 
#           8                             prdata[16]           0           0        0.00 
#           8                             prdata[15]           0           0        0.00 
#           8                             prdata[14]           0           0        0.00 
#           8                             prdata[13]           0           0        0.00 
#           8                             prdata[12]           0           0        0.00 
#           8                             prdata[11]           0           0        0.00 
#           8                             prdata[10]           0           0        0.00 
#           8                              prdata[0]           0           0        0.00 
# 
# Total Node Count     =        101 
# Toggled Node Count   =          0 
# Untoggled Node Count =        101 
# 
# Toggle Coverage      =        0.0% (0 of 202 bins)
# 
# =================================================================================
# === File: monitor.sv
# =================================================================================
# Statement Coverage:
#     Enabled Coverage            Active      Hits    Misses % Covered
#     ----------------            ------      ----    ------ ---------
#     Stmts                           18         0        18       0.0
# 
# ================================Statement Details================================
# 
# Statement Coverage for file monitor.sv --
# 
#     1                                                class monitor extends uvm_monitor;
#     2               1                    ***0***       `uvm_component_utils(monitor)
#     2               2                    ***0***     
#     2               3                    ***0***     
#     3                                                  uvm_analysis_port #(seq_item) mon_ap;
#     4                                                  virtual top_if.mp_mon vif;
#     5                                                  seq_item tr;
#     6                                                  
#     7                                                  function new(string name = "monitor", uvm_component parent);
#     8               1                    ***0***         super.new(name,parent);
#     9                                                  endfunction
#     10                                                 
#     11                                                 function void build_phase(uvm_phase phase);
#     12              1                    ***0***         super.build_phase(phase);
#     13              1                    ***0***         mon_ap = new("mon_ap",this);
#     14              1                    ***0***         if(! uvm_config_db#(virtual top_if.mp_mon)::get (this, "", "vif", vif))`uvm_error("MON", "Error getting Interface Handle");
#     15                                                 endfunction
#     16                                                
#     17                                                 /*virtual task run_phase(uvm_phase phase);
#     18                                                   forever begin
#     19                                                     repeat(3)@(posedge vif.clk);
#     20                                                     $display("-----MONITOR BEGIN-----");
#     21                                               	  if(vif.psel && vif.penable && vif.rst)begin
#     22                                                       tr = seq_item::type_id::create("seq_item");
#     23                                                       tr.paddr  =  vif.paddr;
#     24                                                       tr.pwrite =  vif.pwrite;
#     25                                                        if(vif.pwrite)begin
#     26                                                	      tr.pwdata = vif.pwdata;
#     27                                                         @(posedge vif.clk);
#     28                                                         `uvm_info("MON", $sformatf("Mode : Write WDATA : %0d ADDR : %0d", vif.pwdata, vif.paddr), UVM_NONE);
#     29                                                          end
#     30                                                      else begin 
#     31                                                         @(posedge vif.clk);
#     32                                                         tr.prdata = vif.prdata;
#     33                                                         `uvm_info("MON", $sformatf("Mode : Write RDATA : %0d ADDR : %0d", vif.prdata, vif.paddr), UVM_NONE);
#     34                                                         end
#     35                                                         mon_ap.write(tr);
#     36                                                         end
#     37                                                      end
#     38                                                     $display("-----MONITOR END------");
#     39                                                 endtask*/
#     40                                               
#     41                                               virtual task run_phase(uvm_phase phase);
#     42              1                    ***0***         tr = seq_item::type_id::create("tr");
#     43              1                    ***0***         forever begin
#     44                                                     //  repeat(3) @(vif.cb_mon);
#     45              1                    ***0***           @(vif.cb_mon);
#     46              1                    ***0***           $display("-------------monitor begin----------");
#     47              1                    ***0***           tr.paddr    =   vif.cb_mon.paddr;
#     48              1                    ***0***           tr.pwrite   =   vif.cb_mon.pwrite;
#     49              1                    ***0***           tr.psel     =   vif.cb_mon.psel;
#     50              1                    ***0***           tr.penable  =   vif.cb_mon.penable;
#     51              1                    ***0***           tr.pwdata   =   vif.cb_mon.pwdata;
#     52              1                    ***0***           tr.prdata   =   vif.cb_mon.prdata;
#     53                                               
#     54              1                    ***0***           mon_ap.write(tr);
#     55                                               
#     56                                                   end
#     57                                                 endtask
#     58                                               
#     59                                               endclass
# 
# Branch Coverage:
#     Enabled Coverage            Active      Hits    Misses % Covered
#     ----------------            ------      ----    ------ ---------
#     Branches                         4         0         4       0.0
# 
# ================================Branch Details================================
# 
# Branch Coverage for file monitor.sv --
# 
# ------------------------------------IF Branch------------------------------------
#     14                                   ***0***     Count coming in to IF
#     14              1                    ***0***         if(! uvm_config_db#(virtual top_if.mp_mon)::get (this, "", "vif", vif))`uvm_error("MON", "Error getting Interface Handle");
#                                          ***0***     All False Count
# Branch totals: 0 hits of 2 branches = 0.0%
# 
# ------------------------------------IF Branch------------------------------------
#     14                                   ***0***     Count coming in to IF
#     14              2                    ***0***         if(! uvm_config_db#(virtual top_if.mp_mon)::get (this, "", "vif", vif))`uvm_error("MON", "Error getting Interface Handle");
#                                          ***0***     All False Count
# Branch totals: 0 hits of 2 branches = 0.0%
# 
# 
# Condition Coverage:
#     Enabled Coverage            Active   Covered    Misses % Covered
#     ----------------            ------      ----    ------ ---------
#     FEC Condition Terms              0         0         0     100.0
# Expression Coverage:
#     Enabled Coverage            Active   Covered    Misses % Covered
#     ----------------            ------      ----    ------ ---------
#     FEC Expression Terms             0         0         0     100.0
# FSM Coverage:
#     Enabled Coverage            Active      Hits    Misses % Covered
#     ----------------            ------      ----    ------ ---------
#     FSMs                                                       100.0
#         States                       0         0         0     100.0
#         Transitions                  0         0         0     100.0
# Toggle Coverage:
#     Enabled Coverage            Active      Hits    Misses % Covered
#     ----------------            ------      ----    ------ ---------
#     Toggle Bins                      0         0         0     100.0
# 
# ================================Toggle Details================================
# 
# Toggle Coverage for File monitor.sv --
# 
#        Line                                   Node      1H->0L      0L->1H  "Coverage"
# --------------------------------------------------------------------------------------
# 
# Total Node Count     =          0 
# Toggled Node Count   =          0 
# Untoggled Node Count =          0 
# 
# Toggle Coverage      =      100.0% (0 of 0 bins)
# 
# =================================================================================
# === File: reg_block.sv
# =================================================================================
# Statement Coverage:
#     Enabled Coverage            Active      Hits    Misses % Covered
#     ----------------            ------      ----    ------ ---------
#     Stmts                          125         0       125       0.0
# 
# ================================Statement Details================================
# 
# Statement Coverage for file reg_block.sv --
# 
#     1                                                class cntrl_field extends uvm_reg;
#     2               1                    ***0***       `uvm_object_utils(cntrl_field)
#     2               2                    ***0***     
#     2               3                    ***0***     
#     2               4                    ***0***     
#     2               5                    ***0***     
#     2               6                    ***0***     
#     2               7                    ***0***     
#     2               8                    ***0***     
#     2               9                    ***0***     
#     2              10                    ***0***     
#     3                                                
#     4                                                  rand uvm_reg_field cntrl;
#     5                                                
#     6                                                  covergroup cntrl_cov;
#     7                                                    option.per_instance = 1;
#     8                                                    coverpoint cntrl.value[3:0] {
#     9                                                     bins val = {[0:1]};}
#     10                                                 endgroup
#     11                                                 
#     12                                                 function new (string name = "cntrl");
#     13              1                    ***0***         super.new(name,4,UVM_CVR_FIELD_VALS);
#     14                                                   if(has_coverage(UVM_CVR_FIELD_VALS))
#     15              1                    ***0***           cntrl_cov = new();
#     16                                                 endfunction
#     17                                               
#     18                                                 ////////////////////////////// implementation of sample and sample_Values
#     19                                                 virtual function void sample(uvm_reg_data_t data,uvm_reg_data_t byte_en,bit is_read,uvm_reg_map map);
#     20              1                    ***0***        cntrl_cov.sample();
#     21                                                 endfunction
#     22                                                 
#     23                                                 virtual function void sample_values();
#     24              1                    ***0***        super.sample_values();
#     25              1                    ***0***        cntrl_cov.sample();
#     26                                                 endfunction
#     27                                                 
#     28                                                 function void build;
#     29              1                    ***0***         cntrl = uvm_reg_field::type_id::create("cntrl");
#     30              1                    ***0***         cntrl.configure(this, 4, 0, "RW", 0, 0, 1, 1, 1);
#     31                                                 endfunction
#     32                                               endclass
#     33                                               
#     34                                               class reg1_field extends uvm_reg;
#     35              1                    ***0***       `uvm_object_utils(reg1_field)
#     35              2                    ***0***     
#     35              3                    ***0***     
#     35              4                    ***0***     
#     35              5                    ***0***     
#     35              6                    ***0***     
#     35              7                    ***0***     
#     35              8                    ***0***     
#     35              9                    ***0***     
#     35             10                    ***0***     
#     36                                               
#     37                                                 rand uvm_reg_field reg1;
#     38                                                 covergroup reg1_cov;
#     39                                                   option.per_instance = 1;
#     40                                                 
#     41                                                 coverpoint reg1.value[31:0] {
#     42                                                    bins val = {[0:32'h1FFF_FFFF]};
#     43                                                   }
#     44                                                 endgroup
#     45                                                 
#     46                                                 function new (string name = "reg1");
#     47              1                    ***0***         super.new(name,32,UVM_CVR_FIELD_VALS);
#     48                                                   if(has_coverage(UVM_CVR_FIELD_VALS))
#     49              1                    ***0***           reg1_cov = new();
#     50                                                 endfunction
#     51                                               
#     52                                                 ////////////////////////////// implementation of sample and sample_Values
#     53                                                 virtual function void sample(uvm_reg_data_t data,uvm_reg_data_t byte_en,bit is_read,uvm_reg_map map);
#     54              1                    ***0***        reg1_cov.sample();
#     55                                                 endfunction
#     56                                                 
#     57                                                 virtual function void sample_values();
#     58              1                    ***0***        super.sample_values();
#     59              1                    ***0***        reg1_cov.sample();
#     60                                                 endfunction
#     61                                                 
#     62                                                 function void build;
#     63              1                    ***0***         reg1 = uvm_reg_field::type_id::create("reg1");
#     64              1                    ***0***         reg1.configure(this, 32, 0, "RW", 0, 32'hA5A5_0000, 1, 1, 1);
#     65                                                 endfunction
#     66                                               endclass
#     67                                               
#     68                                               class reg2_field extends uvm_reg;
#     69              1                    ***0***       `uvm_object_utils(reg2_field)
#     69              2                    ***0***     
#     69              3                    ***0***     
#     69              4                    ***0***     
#     69              5                    ***0***     
#     69              6                    ***0***     
#     69              7                    ***0***     
#     69              8                    ***0***     
#     69              9                    ***0***     
#     69             10                    ***0***     
#     70                                               
#     71                                                 rand uvm_reg_field reg2;
#     72                                                 covergroup reg2_cov;
#     73                                                   option.per_instance = 1;
#     74                                                   coverpoint reg2.value[31:0] {
#     75                                                    bins val  = {[0:32'h1FFF_FFFF]};
#     76                                                 }
#     77                                                 endgroup
#     78                                                 
#     79                                                 function new (string name = "reg2");
#     80              1                    ***0***         super.new(name,32,UVM_CVR_FIELD_VALS);
#     81                                                   if(has_coverage(UVM_CVR_FIELD_VALS))
#     82              1                    ***0***           reg2_cov = new();
#     83                                                 endfunction
#     84                                               
#     85                                                 ////////////////////////////// implementation of sample and sample_Values
#     86                                                 virtual function void sample(uvm_reg_data_t data,uvm_reg_data_t byte_en,bit is_read,uvm_reg_map map);
#     87              1                    ***0***        reg2_cov.sample();
#     88                                                 endfunction
#     89                                                 
#     90                                                 virtual function void sample_values();
#     91              1                    ***0***        super.sample_values();
#     92              1                    ***0***        reg2_cov.sample();
#     93                                                 endfunction
#     94                                                 
#     95                                                 function void build;
#     96              1                    ***0***         reg2 = uvm_reg_field :: type_id :: create("reg2");
#     97              1                    ***0***         reg2.configure(this, 32, 0, "RW", 0,32'h1234_9876, 1, 1, 1);
#     98                                                 endfunction
#     99                                               endclass
#     100                                              
#     101                                              class reg3_field extends uvm_reg;
#     102             1                    ***0***       `uvm_object_utils(reg3_field)
#     102             2                    ***0***     
#     102             3                    ***0***     
#     102             4                    ***0***     
#     102             5                    ***0***     
#     102             6                    ***0***     
#     102             7                    ***0***     
#     102             8                    ***0***     
#     102             9                    ***0***     
#     102            10                    ***0***     
#     103                                              
#     104                                                rand uvm_reg_field reg3;
#     105                                                covergroup reg3_cov;
#     106                                                  option.per_instance = 1;
#     107                                              
#     108                                                  coverpoint reg3.value[31:0] {
#     109                                                    bins val  = {[0:32'h1FFF_FFFF]};
#     110                                                }  endgroup
#     111                                                
#     112                                                function new (string name = "reg3");
#     113             1                    ***0***         super.new(name,32,UVM_CVR_FIELD_VALS);
#     114                                                  if(has_coverage(UVM_CVR_FIELD_VALS))
#     115             1                    ***0***           reg3_cov = new();
#     116                                                endfunction
#     117                                              
#     118                                                ////////////////////////////// implementation of sample and sample_Values
